 time            v(clock)        v(reset_n)      v(vout_RF)      v(vout_RF_filt)
 0.00000000e+00  0.00000000e+00  3.30000000e+00  3.51531738e-01  0.00000000e+00 
 5.00000000e-13  3.30000000e-02  3.30000000e+00  3.51531772e-01  8.70748705e-11 
 1.00000000e-12  6.60000000e-02  3.30000000e+00  3.51531804e-01  1.68052450e-10 
 2.00000000e-12  1.32000000e-01  3.30000000e+00  3.51531862e-01  3.17487258e-10 
 4.00000000e-12  2.64000000e-01  3.30000000e+00  3.51531959e-01  5.63967908e-10 
 8.00000000e-12  5.28000000e-01  3.30000000e+00  3.51532111e-01  9.50324073e-10 
 1.44600227e-11  9.54361501e-01  3.30000000e+00  3.51532289e-01  1.39822669e-09 
 2.07101531e-11  1.36687011e+00  3.30000000e+00  3.51532393e-01  1.65725349e-09 
 2.68302700e-11  1.77079782e+00  3.30000000e+00  3.51532472e-01  1.85006151e-09 
 3.32643793e-11  2.19544903e+00  3.30000000e+00  3.51532545e-01  2.02750564e-09 
 4.13068067e-11  2.72624924e+00  3.30000000e+00  3.51532572e-01  2.08258450e-09 
 4.90290528e-11  3.23591749e+00  3.30000000e+00  3.51532593e-01  2.12321947e-09 
 5.00000000e-11  3.30000000e+00  3.30000000e+00  3.51532591e-01  2.11657923e-09 
 5.08772732e-11  3.30000000e+00  3.30000000e+00  3.51532535e-01  1.97451757e-09 
 5.26318196e-11  3.30000000e+00  3.30000000e+00  3.51532437e-01  1.72010538e-09 
 5.61409124e-11  3.30000000e+00  3.30000000e+00  3.51532295e-01  1.35373591e-09 
 6.14689430e-11  3.30000000e+00  3.30000000e+00  3.51532155e-01  9.91089841e-10 
 6.72379695e-11  3.30000000e+00  3.30000000e+00  3.51532064e-01  7.52613484e-10 
 7.47187480e-11  3.30000000e+00  3.30000000e+00  3.51531984e-01  5.46727981e-10 
 7.92279962e-11  3.30000000e+00  3.30000000e+00  3.51531943e-01  4.39916172e-10 
 8.47438906e-11  3.30000000e+00  3.30000000e+00  3.51531905e-01  3.39191979e-10 
 9.04164451e-11  3.30000000e+00  3.30000000e+00  3.51531880e-01  2.75221951e-10 
 9.71320336e-11  3.30000000e+00  3.30000000e+00  3.51531859e-01  2.19073749e-10 
 1.04150866e-10  3.30000000e+00  3.30000000e+00  3.51531839e-01  1.66839662e-10 
 1.17210637e-10  3.30000000e+00  3.30000000e+00  3.51531811e-01  9.58403502e-11 
 1.30858780e-10  3.30000000e+00  3.30000000e+00  3.51531792e-01  4.45816863e-11 
 1.53730277e-10  3.30000000e+00  3.30000000e+00  3.51531772e-01 -6.68947604e-12 
 1.81673514e-10  3.30000000e+00  3.30000000e+00  3.51531759e-01 -4.06179648e-11 
 2.22440514e-10  3.30000000e+00  3.30000000e+00  3.51531749e-01 -6.41595224e-11 
 2.69419641e-10  3.30000000e+00  3.30000000e+00  3.51531743e-01 -7.66889114e-11 
 3.16100454e-10  3.30000000e+00  3.30000000e+00  3.51531740e-01 -8.09116484e-11 
 3.65978324e-10  3.30000000e+00  3.30000000e+00  3.51531739e-01 -8.26997666e-11 
 4.26871960e-10  3.30000000e+00  3.30000000e+00  3.51531738e-01 -8.12925253e-11 
 4.97323985e-10  3.30000000e+00  3.30000000e+00  3.51531737e-01 -7.89932198e-11 
 5.82556763e-10  3.30000000e+00  3.30000000e+00  3.51531737e-01 -7.43342958e-11 
 6.82748144e-10  3.30000000e+00  3.30000000e+00  3.51531737e-01 -6.96251141e-11 
 8.08238167e-10  3.30000000e+00  3.30000000e+00  3.51531738e-01 -6.31967823e-11 
 9.65260890e-10  3.30000000e+00  3.30000000e+00  3.51531738e-01 -5.71313638e-11 
 1.17772112e-09  3.30000000e+00  3.30000000e+00  3.51531738e-01 -4.94985444e-11 
 1.47721939e-09  3.30000000e+00  3.30000000e+00  3.51531737e-01 -4.19231692e-11 
 1.62471875e-09  3.30000000e+00  3.30000000e+00  3.51531738e-01 -3.82478518e-11 
 1.63265287e-09  3.30000000e+00  3.30000000e+00  3.51531737e-01 -3.82838397e-11 
 1.64852110e-09  3.30000000e+00  3.30000000e+00  3.51531737e-01 -3.79702951e-11 
 1.68025758e-09  3.30000000e+00  3.30000000e+00  3.51531737e-01 -3.73123366e-11 
 1.74373053e-09  3.30000000e+00  3.30000000e+00  3.51531737e-01 -3.60751862e-11 
 1.87067643e-09  3.30000000e+00  3.30000000e+00  3.51531737e-01 -3.37181245e-11 
 1.96431059e-09  3.30000000e+00  3.30000000e+00  3.51531737e-01 -3.21222186e-11 
 2.02851532e-09  3.30000000e+00  3.30000000e+00  3.51531737e-01 -3.10641990e-11 
 2.07837271e-09  3.30000000e+00  3.30000000e+00  3.51531737e-01 -3.02913359e-11 
 2.11828378e-09  3.30000000e+00  3.30000000e+00  3.51531737e-01 -2.96715539e-11 
 2.16326052e-09  3.30000000e+00  3.30000000e+00  3.51531737e-01 -2.90127151e-11 
 2.19436351e-09  3.30000000e+00  3.30000000e+00  3.51531737e-01 -2.85521459e-11 
 2.21482074e-09  3.30000000e+00  3.30000000e+00  3.51531737e-01 -2.82687415e-11 
 2.24097899e-09  3.30000000e+00  3.30000000e+00  3.51531737e-01 -2.78927523e-11 
 2.26263295e-09  3.30000000e+00  3.30000000e+00  3.51531737e-01 -2.76001466e-11 
 2.28882388e-09  3.30000000e+00  3.30000000e+00  3.51531737e-01 -2.72356221e-11 
 2.34120573e-09  3.30000000e+00  3.30000000e+00  3.51531737e-01 -2.65444550e-11 
 2.42735664e-09  3.30000000e+00  3.30000000e+00  3.51531737e-01 -2.54383511e-11 
 2.50611681e-09  3.30000000e+00  3.30000000e+00  3.51531737e-01 -2.44896234e-11 
 2.56611277e-09  3.30000000e+00  3.30000000e+00  3.51531737e-01 -2.37861539e-11 
 2.63393967e-09  3.30000000e+00  3.30000000e+00  3.51531737e-01 -2.30342971e-11 
 2.71496951e-09  3.30000000e+00  3.30000000e+00  3.51531737e-01 -2.21626156e-11 
 2.80357570e-09  3.30000000e+00  3.30000000e+00  3.51531737e-01 -2.12690072e-11 
 2.88641253e-09  3.30000000e+00  3.30000000e+00  3.51531737e-01 -2.04640693e-11 
 2.99846451e-09  3.30000000e+00  3.30000000e+00  3.51531737e-01 -1.94492773e-11 
 3.13685581e-09  3.30000000e+00  3.30000000e+00  3.51531737e-01 -1.82713416e-11 
 3.26590057e-09  3.30000000e+00  3.30000000e+00  3.51531737e-01 -1.72646427e-11 
 3.39688573e-09  3.30000000e+00  3.30000000e+00  3.51531737e-01 -1.63037039e-11 
 3.45665640e-09  3.30000000e+00  3.30000000e+00  3.51531737e-01 -1.58958606e-11 
 3.49691864e-09  3.30000000e+00  3.30000000e+00  3.51531737e-01 -1.56195012e-11 
 3.52508220e-09  3.30000000e+00  3.30000000e+00  3.51531737e-01 -1.54386684e-11 
 3.55186884e-09  3.30000000e+00  3.30000000e+00  3.51531737e-01 -1.52592098e-11 
 3.58534980e-09  3.30000000e+00  3.30000000e+00  3.51531737e-01 -1.50495320e-11 
 3.62099862e-09  3.30000000e+00  3.30000000e+00  3.51531737e-01 -1.48205043e-11 
 3.66348617e-09  3.30000000e+00  3.30000000e+00  3.51531737e-01 -1.45631744e-11 
 3.70491331e-09  3.30000000e+00  3.30000000e+00  3.51531737e-01 -1.43088053e-11 
 3.75263958e-09  3.30000000e+00  3.30000000e+00  3.51531737e-01 -1.40318654e-11 
 3.79643668e-09  3.30000000e+00  3.30000000e+00  3.51531737e-01 -1.37752781e-11 
 3.84890150e-09  3.30000000e+00  3.30000000e+00  3.51531737e-01 -1.34844536e-11 
 3.90409889e-09  3.30000000e+00  3.30000000e+00  3.51531737e-01 -1.31781215e-11 
 3.95706100e-09  3.30000000e+00  3.30000000e+00  3.51531737e-01 -1.28997961e-11 
 4.01637172e-09  3.30000000e+00  3.30000000e+00  3.51531737e-01 -1.25878801e-11 
 4.08605403e-09  3.30000000e+00  3.30000000e+00  3.51531737e-01 -1.22409433e-11 
 4.16891390e-09  3.30000000e+00  3.30000000e+00  3.51531737e-01 -1.18341708e-11 
 4.26648278e-09  3.30000000e+00  3.30000000e+00  3.51531737e-01 -1.13824425e-11 
 4.28125110e-09  3.30000000e+00  3.30000000e+00  3.51531737e-01 -1.13135214e-11 
 4.31078774e-09  3.30000000e+00  3.30000000e+00  3.51531737e-01 -1.11802579e-11 
 4.31817190e-09  3.30000000e+00  3.30000000e+00  3.51531737e-01 -1.11472850e-11 
 4.32001794e-09  3.30000000e+00  3.30000000e+00  3.51531737e-01 -1.11390406e-11 
 4.32371002e-09  3.30000000e+00  3.30000000e+00  3.51531737e-01 -1.11225749e-11 
 4.32463304e-09  3.30000000e+00  3.30000000e+00  3.51531737e-01 -1.11184726e-11 
 4.32647908e-09  3.30000000e+00  3.30000000e+00  3.51531737e-01 -1.11102666e-11 
 4.32694059e-09  3.30000000e+00  3.30000000e+00  3.51531737e-01 -1.11082270e-11 
 4.32786361e-09  3.30000000e+00  3.30000000e+00  3.51531737e-01 -1.11041466e-11 
 4.32970965e-09  3.30000000e+00  3.30000000e+00  3.51531737e-01 -1.10959523e-11 
 4.33017116e-09  3.30000000e+00  3.30000000e+00  3.51531737e-01 -1.10939030e-11 
 4.33017297e-09  3.30000000e+00  3.30000000e+00  3.51531737e-01 -1.10939079e-11 
 4.33017657e-09  3.30000000e+00  3.30000000e+00  3.51531737e-01 -1.10939123e-11 
 4.33018378e-09  3.30000000e+00  3.30000000e+00  3.51531737e-01 -1.10938996e-11 
 4.33018381e-09  3.30000000e+00  3.30000000e+00  3.51531737e-01 -1.10939138e-11 
 4.33018387e-09  3.30000000e+00  3.30000000e+00  3.51531737e-01 -1.10939443e-11 
 4.33018388e-09  3.30000000e+00  3.30000000e+00  3.51531737e-01 -1.10939657e-11 
 4.33018391e-09  3.30000000e+00  3.30000000e+00  3.51531737e-01 -1.10940101e-11 
 4.33018392e-09  3.30000000e+00  3.30000000e+00  3.51531737e-01 -1.10940131e-11 
 4.33018393e-09  3.30000000e+00  3.30000000e+00  3.51531737e-01 -1.10940182e-11 
 4.33018393e-09  3.30000000e+00  3.30000000e+00  3.51531737e-01 -1.10940008e-11 
 4.33018394e-09  3.30000000e+00  3.30000000e+00  3.51531737e-01 -1.10939695e-11 
