 time            v(vin)          v(vout)        
 0.00000000e+00  7.50000000e-01  5.37180461e-01 
 1.00000000e-08  7.50000628e-01  5.37176933e-01 
 2.00000000e-08  7.50001257e-01  5.37170391e-01 
 4.00000000e-08  7.50002513e-01  5.37151369e-01 
 8.00000000e-08  7.50005027e-01  5.37093468e-01 
 1.60000000e-07  7.50010053e-01  5.36936892e-01 
 3.20000000e-07  7.50020106e-01  5.36575684e-01 
 6.40000000e-07  7.50040212e-01  5.35831733e-01 
 1.28000000e-06  7.50080424e-01  5.34353777e-01 
 1.40500000e-06  7.50088278e-01  5.34066485e-01 
 1.65500000e-06  7.50103985e-01  5.33492417e-01 
 2.15500000e-06  7.50135399e-01  5.32346828e-01 
 3.15500000e-06  7.50198222e-01  5.30066001e-01 
 4.15500000e-06  7.50261037e-01  5.27799117e-01 
 5.15500000e-06  7.50323842e-01  5.25546381e-01 
 5.28000000e-06  7.50331691e-01  5.25265825e-01 
 5.53000000e-06  7.50347390e-01  5.24705307e-01 
 6.03000000e-06  7.50378785e-01  5.23587005e-01 
 7.03000000e-06  7.50441564e-01  5.21361358e-01 
 8.03000000e-06  7.50504326e-01  5.19150450e-01 
 9.03000000e-06  7.50567067e-01  5.16954475e-01 
 1.00300000e-05  7.50629786e-01  5.14773628e-01 
 1.10300000e-05  7.50692481e-01  5.12608098e-01 
 1.20300000e-05  7.50755148e-01  5.10458070e-01 
 1.30300000e-05  7.50817785e-01  5.08323725e-01 
 1.40300000e-05  7.50880390e-01  5.06205238e-01 
 1.50300000e-05  7.50942960e-01  5.04102779e-01 
 1.60300000e-05  7.51005493e-01  5.02016514e-01 
 1.70300000e-05  7.51067986e-01  4.99946602e-01 
 1.80300000e-05  7.51130437e-01  4.97893198e-01 
 1.90300000e-05  7.51192843e-01  4.95856449e-01 
 2.00300000e-05  7.51255202e-01  4.93836497e-01 
 2.10300000e-05  7.51317512e-01  4.91833478e-01 
 2.20300000e-05  7.51379770e-01  4.89847522e-01 
 2.30300000e-05  7.51441973e-01  4.87878749e-01 
 2.40300000e-05  7.51504119e-01  4.85927277e-01 
 2.50300000e-05  7.51566206e-01  4.83993212e-01 
 2.51550000e-05  7.51573963e-01  4.83752719e-01 
 2.54050000e-05  7.51589473e-01  4.83272461e-01 
 2.54675000e-05  7.51593350e-01  4.83152579e-01 
 2.54677441e-05  7.51593365e-01  4.83152110e-01 
 2.54682324e-05  7.51593396e-01  4.83151174e-01 
 2.54692090e-05  7.51593456e-01  4.83149301e-01 
 2.54711621e-05  7.51593577e-01  4.83145554e-01 
 2.54750684e-05  7.51593820e-01  4.83138062e-01 
 2.54828809e-05  7.51594304e-01  4.83123079e-01 
 2.54985059e-05  7.51595273e-01  4.83093118e-01 
 2.55297559e-05  7.51597212e-01  4.83033211e-01 
 2.55922559e-05  7.51601088e-01  4.82913455e-01 
 2.57172559e-05  7.51608840e-01  4.82674157e-01 
 2.59672559e-05  7.51624342e-01  4.82196390e-01 
 2.64672559e-05  7.51655332e-01  4.81244155e-01 
 2.74672559e-05  7.51717264e-01  4.79352926e-01 
 2.84672559e-05  7.51779128e-01  4.77479420e-01 
 2.94672559e-05  7.51840922e-01  4.75623711e-01 
 3.04672559e-05  7.51902644e-01  4.73785866e-01 
 3.14672559e-05  7.51964290e-01  4.71965944e-01 
 3.24672559e-05  7.52025858e-01  4.70163996e-01 
 3.34672559e-05  7.52087347e-01  4.68380063e-01 
 3.44672559e-05  7.52148753e-01  4.66614181e-01 
 3.54672559e-05  7.52210074e-01  4.64866374e-01 
 3.64672559e-05  7.52271309e-01  4.63136661e-01 
 3.74672559e-05  7.52332453e-01  4.61425050e-01 
 3.84672559e-05  7.52393505e-01  4.59731544e-01 
 3.94672559e-05  7.52454463e-01  4.58056135e-01 
 4.04672559e-05  7.52515324e-01  4.56398808e-01 
 4.14672559e-05  7.52576086e-01  4.54759540e-01 
 4.24672559e-05  7.52636746e-01  4.53138300e-01 
 4.34672559e-05  7.52697302e-01  4.51535050e-01 
 4.44672559e-05  7.52757751e-01  4.49949742e-01 
 4.54672559e-05  7.52818092e-01  4.48382323e-01 
 4.64672559e-05  7.52878321e-01  4.46832732e-01 
 4.74672559e-05  7.52938437e-01  4.45300901e-01 
 4.84672559e-05  7.52998436e-01  4.43786754e-01 
 4.94672559e-05  7.53058318e-01  4.42290209e-01 
 5.04672559e-05  7.53118078e-01  4.40811178e-01 
 5.14672559e-05  7.53177716e-01  4.39349566e-01 
 5.24672559e-05  7.53237228e-01  4.37905273e-01 
 5.34672559e-05  7.53296612e-01  4.36478192e-01 
 5.44672559e-05  7.53355866e-01  4.35068211e-01 
 5.54672559e-05  7.53414987e-01  4.33675212e-01 
 5.64672559e-05  7.53473974e-01  4.32299074e-01 
 5.74672559e-05  7.53532824e-01  4.30939670e-01 
 5.84672559e-05  7.53591534e-01  4.29596868e-01 
 5.94672559e-05  7.53650102e-01  4.28270534e-01 
 6.04672559e-05  7.53708527e-01  4.26960527e-01 
 6.05922559e-05  7.53715819e-01  4.26797946e-01 
 6.08422559e-05  7.53730398e-01  4.26473466e-01 
 6.13422559e-05  7.53759528e-01  4.25827554e-01 
 6.23422559e-05  7.53817676e-01  4.24547773e-01 
 6.33422559e-05  7.53875673e-01  4.23283900e-01 
 6.43422559e-05  7.53933517e-01  4.22035785e-01 
 6.53422559e-05  7.53991206e-01  4.20803272e-01 
 6.63422559e-05  7.54048737e-01  4.19586203e-01 
 6.73422559e-05  7.54106108e-01  4.18384422e-01 
 6.83422559e-05  7.54163318e-01  4.17197768e-01 
 6.93422559e-05  7.54220363e-01  4.16026077e-01 
 7.03422559e-05  7.54277241e-01  4.14869188e-01 
 7.13422559e-05  7.54333950e-01  4.13726936e-01 
 7.23422559e-05  7.54390489e-01  4.12599154e-01 
 7.33422559e-05  7.54446854e-01  4.11485678e-01 
 7.43422559e-05  7.54503043e-01  4.10386340e-01 
 7.53422559e-05  7.54559055e-01  4.09300973e-01 
 7.63422559e-05  7.54614887e-01  4.08229412e-01 
 7.73422559e-05  7.54670537e-01  4.07171489e-01 
 7.83422559e-05  7.54726002e-01  4.06127036e-01 
 7.93422559e-05  7.54781280e-01  4.05095889e-01 
 8.03422559e-05  7.54836370e-01  4.04077880e-01 
 8.13422559e-05  7.54891269e-01  4.03072845e-01 
 8.23422559e-05  7.54945975e-01  4.02080620e-01 
 8.33422559e-05  7.55000486e-01  4.01101041e-01 
 8.43422559e-05  7.55054799e-01  4.00133946e-01 
 8.53422559e-05  7.55108912e-01  3.99179173e-01 
 8.63422559e-05  7.55162824e-01  3.98236563e-01 
 8.73422559e-05  7.55216532e-01  3.97305957e-01 
 8.83422559e-05  7.55270034e-01  3.96387197e-01 
 8.93422559e-05  7.55323329e-01  3.95480128e-01 
 9.03422559e-05  7.55376412e-01  3.94584595e-01 
 9.13422559e-05  7.55429284e-01  3.93700447e-01 
 9.23422559e-05  7.55481941e-01  3.92827531e-01 
 9.33422559e-05  7.55534382e-01  3.91965699e-01 
 9.43422559e-05  7.55586605e-01  3.91114804e-01 
 9.53422559e-05  7.55638607e-01  3.90274699e-01 
 9.63422559e-05  7.55690386e-01  3.89445242e-01 
 9.73422559e-05  7.55741941e-01  3.88626290e-01 
 9.83422559e-05  7.55793269e-01  3.87817704e-01 
 9.93422559e-05  7.55844368e-01  3.87019345e-01 
 1.00342256e-04  7.55895236e-01  3.86231078e-01 
 1.01342256e-04  7.55945872e-01  3.85452769e-01 
 1.02342256e-04  7.55996273e-01  3.84684285e-01 
 1.03342256e-04  7.56046438e-01  3.83925497e-01 
 1.04342256e-04  7.56096363e-01  3.83176277e-01 
 1.05342256e-04  7.56146048e-01  3.82436499e-01 
 1.06342256e-04  7.56195491e-01  3.81706038e-01 
 1.07342256e-04  7.56244688e-01  3.80984773e-01 
 1.08342256e-04  7.56293640e-01  3.80272584e-01 
 1.09342256e-04  7.56342342e-01  3.79569353e-01 
 1.10342256e-04  7.56390795e-01  3.78874964e-01 
 1.11342256e-04  7.56438995e-01  3.78189303e-01 
 1.12342256e-04  7.56486941e-01  3.77512258e-01 
 1.13342256e-04  7.56534630e-01  3.76843719e-01 
 1.14342256e-04  7.56582062e-01  3.76183577e-01 
 1.15342256e-04  7.56629234e-01  3.75531727e-01 
 1.16342256e-04  7.56676144e-01  3.74888064e-01 
 1.17342256e-04  7.56722791e-01  3.74252486e-01 
 1.18342256e-04  7.56769172e-01  3.73624892e-01 
 1.19342256e-04  7.56815286e-01  3.73005183e-01 
 1.20342256e-04  7.56861131e-01  3.72393263e-01 
 1.21342256e-04  7.56906705e-01  3.71789036e-01 
 1.22342256e-04  7.56952007e-01  3.71192408e-01 
 1.23342256e-04  7.56997034e-01  3.70603289e-01 
 1.24342256e-04  7.57041785e-01  3.70021588e-01 
 1.25342256e-04  7.57086257e-01  3.69447217e-01 
 1.26342256e-04  7.57130450e-01  3.68880089e-01 
 1.27342256e-04  7.57174362e-01  3.68320120e-01 
 1.28342256e-04  7.57217990e-01  3.67767226e-01 
 1.29342256e-04  7.57261334e-01  3.67221326e-01 
 1.30342256e-04  7.57304390e-01  3.66682339e-01 
 1.30467256e-04  7.57309752e-01  3.66615456e-01 
 1.30717256e-04  7.57320462e-01  3.66481987e-01 
 1.31217256e-04  7.57341828e-01  3.66216335e-01 
 1.32217256e-04  7.57384343e-01  3.65690100e-01 
 1.33217256e-04  7.57426566e-01  3.65170557e-01 
 1.34217256e-04  7.57468496e-01  3.64657632e-01 
 1.35217256e-04  7.57510131e-01  3.64151251e-01 
 1.36217256e-04  7.57551470e-01  3.63651343e-01 
 1.37217256e-04  7.57592510e-01  3.63157838e-01 
 1.38217256e-04  7.57633251e-01  3.62670668e-01 
 1.39217256e-04  7.57673690e-01  3.62189766e-01 
 1.40217256e-04  7.57713826e-01  3.61715065e-01 
 1.40342256e-04  7.57718822e-01  3.61656167e-01 
 1.40592256e-04  7.57728799e-01  3.61538639e-01 
 1.41092256e-04  7.57748696e-01  3.61304738e-01 
 1.42092256e-04  7.57788260e-01  3.60841492e-01 
 1.43092256e-04  7.57827517e-01  3.60384265e-01 
 1.44092256e-04  7.57866464e-01  3.59932996e-01 
 1.45092256e-04  7.57905102e-01  3.59487625e-01 
 1.46092256e-04  7.57943427e-01  3.59048095e-01 
 1.46217256e-04  7.57948195e-01  3.58993568e-01 
 1.46467256e-04  7.57957718e-01  3.58884766e-01 
 1.46967256e-04  7.57976704e-01  3.58668251e-01 
 1.47967256e-04  7.58014440e-01  3.58239517e-01 
 1.48967256e-04  7.58051859e-01  3.57816460e-01 
 1.49967256e-04  7.58088960e-01  3.57399028e-01 
 1.50967256e-04  7.58125743e-01  3.56987166e-01 
 1.51967256e-04  7.58162204e-01  3.56580823e-01 
 1.52967256e-04  7.58198343e-01  3.56179947e-01 
 1.53967256e-04  7.58234159e-01  3.55784490e-01 
 1.54967256e-04  7.58269649e-01  3.55394402e-01 
 1.55967256e-04  7.58304813e-01  3.55009635e-01 
 1.56967256e-04  7.58339649e-01  3.54630142e-01 
 1.57967256e-04  7.58374156e-01  3.54255877e-01 
 1.58967256e-04  7.58408332e-01  3.53886796e-01 
 1.59967256e-04  7.58442177e-01  3.53522854e-01 
 1.60967256e-04  7.58475688e-01  3.53164007e-01 
 1.61967256e-04  7.58508864e-01  3.52810214e-01 
 1.62967256e-04  7.58541705e-01  3.52461434e-01 
 1.63967256e-04  7.58574208e-01  3.52117625e-01 
 1.64967256e-04  7.58606373e-01  3.51778747e-01 
 1.65967256e-04  7.58638198e-01  3.51444763e-01 
 1.66967256e-04  7.58669682e-01  3.51115633e-01 
 1.67967256e-04  7.58700824e-01  3.50791320e-01 
 1.68967256e-04  7.58731622e-01  3.50471789e-01 
 1.69967256e-04  7.58762075e-01  3.50157002e-01 
 1.70967256e-04  7.58792183e-01  3.49846925e-01 
 1.71967256e-04  7.58821944e-01  3.49541524e-01 
 1.72967256e-04  7.58851356e-01  3.49240765e-01 
 1.73967256e-04  7.58880419e-01  3.48944614e-01 
 1.74967256e-04  7.58909131e-01  3.48653041e-01 
 1.75967256e-04  7.58937492e-01  3.48366014e-01 
 1.76967256e-04  7.58965499e-01  3.48083500e-01 
 1.77967256e-04  7.58993153e-01  3.47805472e-01 
 1.78967256e-04  7.59020452e-01  3.47531898e-01 
 1.79092256e-04  7.59023839e-01  3.47498017e-01 
 1.79342256e-04  7.59030597e-01  3.47430451e-01 
 1.79842256e-04  7.59044046e-01  3.47296152e-01 
 1.80842256e-04  7.59070676e-01  3.47030854e-01 
 1.81842256e-04  7.59096948e-01  3.46769929e-01 
 1.82842256e-04  7.59122861e-01  3.46513351e-01 
 1.83842256e-04  7.59148414e-01  3.46261092e-01 
 1.84842256e-04  7.59173605e-01  3.46013127e-01 
 1.85842256e-04  7.59198435e-01  3.45769431e-01 
 1.86842256e-04  7.59222901e-01  3.45529979e-01 
 1.87842256e-04  7.59247003e-01  3.45294746e-01 
 1.88842256e-04  7.59270741e-01  3.45063708e-01 
 1.89842256e-04  7.59294112e-01  3.44836844e-01 
 1.90842256e-04  7.59317116e-01  3.44614130e-01 
 1.91842256e-04  7.59339752e-01  3.44395543e-01 
 1.92842256e-04  7.59362020e-01  3.44181063e-01 
 1.93842256e-04  7.59383918e-01  3.43970668e-01 
 1.94842256e-04  7.59405446e-01  3.43764338e-01 
 1.95842256e-04  7.59426602e-01  3.43562052e-01 
 1.96842256e-04  7.59447386e-01  3.43363791e-01 
 1.97842256e-04  7.59467797e-01  3.43169536e-01 
 1.98842256e-04  7.59487835e-01  3.42979268e-01 
 1.99842256e-04  7.59507498e-01  3.42792969e-01 
 2.00842256e-04  7.59526785e-01  3.42610621e-01 
 2.01842256e-04  7.59545697e-01  3.42432207e-01 
 2.02842256e-04  7.59564231e-01  3.42257710e-01 
 2.03842256e-04  7.59582388e-01  3.42087114e-01 
 2.04842256e-04  7.59600167e-01  3.41920402e-01 
 2.05842256e-04  7.59617567e-01  3.41757559e-01 
 2.06842256e-04  7.59634587e-01  3.41598569e-01 
 2.07842256e-04  7.59651226e-01  3.41443419e-01 
 2.08842256e-04  7.59667485e-01  3.41292094e-01 
 2.09842256e-04  7.59683362e-01  3.41144579e-01 
 2.10842256e-04  7.59698857e-01  3.41000861e-01 
 2.11842256e-04  7.59713969e-01  3.40860927e-01 
 2.12842256e-04  7.59728697e-01  3.40724765e-01 
 2.13842256e-04  7.59743041e-01  3.40592362e-01 
 2.14842256e-04  7.59757001e-01  3.40463705e-01 
 2.15842256e-04  7.59770575e-01  3.40338784e-01 
 2.16842256e-04  7.59783764e-01  3.40217586e-01 
 2.17842256e-04  7.59796566e-01  3.40100102e-01 
 2.18842256e-04  7.59808982e-01  3.39986321e-01 
 2.19842256e-04  7.59821010e-01  3.39876231e-01 
 2.20842256e-04  7.59832651e-01  3.39769825e-01 
 2.21842256e-04  7.59843904e-01  3.39667091e-01 
 2.22842256e-04  7.59854768e-01  3.39568022e-01 
 2.23842256e-04  7.59865243e-01  3.39472608e-01 
 2.24842256e-04  7.59875328e-01  3.39380840e-01 
 2.25842256e-04  7.59885024e-01  3.39292712e-01 
 2.26842256e-04  7.59894329e-01  3.39208214e-01 
 2.27842256e-04  7.59903244e-01  3.39127340e-01 
 2.28842256e-04  7.59911767e-01  3.39050083e-01 
 2.29842256e-04  7.59919900e-01  3.38976435e-01 
 2.30842256e-04  7.59927641e-01  3.38906391e-01 
 2.31842256e-04  7.59934990e-01  3.38839944e-01 
 2.32842256e-04  7.59941946e-01  3.38777088e-01 
 2.33842256e-04  7.59948511e-01  3.38717818e-01 
 2.34842256e-04  7.59954682e-01  3.38662130e-01 
 2.35842256e-04  7.59960460e-01  3.38610017e-01 
 2.36842256e-04  7.59965846e-01  3.38561475e-01 
 2.37842256e-04  7.59970838e-01  3.38516501e-01 
 2.38842256e-04  7.59975436e-01  3.38475091e-01 
 2.39842256e-04  7.59979640e-01  3.38437240e-01 
 2.40842256e-04  7.59983450e-01  3.38402946e-01 
 2.41842256e-04  7.59986867e-01  3.38372205e-01 
 2.42842256e-04  7.59989889e-01  3.38345016e-01 
 2.43842256e-04  7.59992516e-01  3.38321375e-01 
 2.44842256e-04  7.59994749e-01  3.38301281e-01 
 2.45842256e-04  7.59996588e-01  3.38284732e-01 
 2.46842256e-04  7.59998032e-01  3.38271726e-01 
 2.47842256e-04  7.59999081e-01  3.38262262e-01 
 2.48842256e-04  7.59999735e-01  3.38256340e-01 
 2.49842256e-04  7.59999995e-01  3.38253959e-01 
 2.50842256e-04  7.59999860e-01  3.38255119e-01 
 2.51842256e-04  7.59999330e-01  3.38259820e-01 
 2.52842256e-04  7.59998405e-01  3.38268062e-01 
 2.53842256e-04  7.59997086e-01  3.38279846e-01 
 2.54842256e-04  7.59995372e-01  3.38295173e-01 
 2.55842256e-04  7.59993263e-01  3.38314045e-01 
 2.56842256e-04  7.59990760e-01  3.38336462e-01 
 2.57842256e-04  7.59987863e-01  3.38362427e-01 
 2.58842256e-04  7.59984571e-01  3.38391943e-01 
 2.59842256e-04  7.59980885e-01  3.38425010e-01 
 2.60842256e-04  7.59976805e-01  3.38461634e-01 
 2.61842256e-04  7.59972331e-01  3.38501816e-01 
 2.62842256e-04  7.59967463e-01  3.38545559e-01 
 2.63842256e-04  7.59962202e-01  3.38592869e-01 
 2.64842256e-04  7.59956547e-01  3.38643749e-01 
 2.65842256e-04  7.59950500e-01  3.38698202e-01 
 2.66842256e-04  7.59944060e-01  3.38756235e-01 
 2.67842256e-04  7.59937227e-01  3.38817852e-01 
 2.68842256e-04  7.59930002e-01  3.38883058e-01 
 2.69842256e-04  7.59922384e-01  3.38951859e-01 
 2.70842256e-04  7.59914375e-01  3.39024261e-01 
 2.71842256e-04  7.59905975e-01  3.39100270e-01 
 2.72842256e-04  7.59897184e-01  3.39179893e-01 
 2.73842256e-04  7.59888002e-01  3.39263137e-01 
 2.74842256e-04  7.59878429e-01  3.39350009e-01 
 2.75842256e-04  7.59868467e-01  3.39440516e-01 
 2.76842256e-04  7.59858114e-01  3.39534668e-01 
 2.77842256e-04  7.59847373e-01  3.39632471e-01 
 2.78842256e-04  7.59836243e-01  3.39733935e-01 
 2.79842256e-04  7.59824725e-01  3.39839069e-01 
 2.80842256e-04  7.59812819e-01  3.39947881e-01 
 2.81842256e-04  7.59800525e-01  3.40060382e-01 
 2.82842256e-04  7.59787845e-01  3.40176582e-01 
 2.83842256e-04  7.59774778e-01  3.40296491e-01 
 2.84842256e-04  7.59761325e-01  3.40420119e-01 
 2.85842256e-04  7.59747487e-01  3.40547479e-01 
 2.86842256e-04  7.59733264e-01  3.40678580e-01 
 2.87842256e-04  7.59718657e-01  3.40813436e-01 
 2.88842256e-04  7.59703666e-01  3.40952059e-01 
 2.89842256e-04  7.59688292e-01  3.41094460e-01 
 2.90842256e-04  7.59672535e-01  3.41240654e-01 
 2.91842256e-04  7.59656397e-01  3.41390653e-01 
 2.92842256e-04  7.59639877e-01  3.41544471e-01 
 2.93842256e-04  7.59622977e-01  3.41702123e-01 
 2.94842256e-04  7.59605697e-01  3.41863622e-01 
 2.95842256e-04  7.59588038e-01  3.42028985e-01 
 2.96842256e-04  7.59570000e-01  3.42198226e-01 
 2.97842256e-04  7.59551585e-01  3.42371361e-01 
 2.98842256e-04  7.59532792e-01  3.42548407e-01 
 2.99842256e-04  7.59513623e-01  3.42729380e-01 
 3.00842256e-04  7.59494079e-01  3.42914298e-01 
 3.01842256e-04  7.59474159e-01  3.43103177e-01 
 3.02842256e-04  7.59453866e-01  3.43296036e-01 
 3.03842256e-04  7.59433199e-01  3.43492894e-01 
 3.04842256e-04  7.59412160e-01  3.43693770e-01 
 3.05842256e-04  7.59390750e-01  3.43898682e-01 
 3.06842256e-04  7.59368969e-01  3.44107651e-01 
 3.07842256e-04  7.59346817e-01  3.44320697e-01 
 3.08842256e-04  7.59324297e-01  3.44537841e-01 
 3.09842256e-04  7.59301409e-01  3.44759104e-01 
 3.10842256e-04  7.59278153e-01  3.44984509e-01 
 3.11842256e-04  7.59254532e-01  3.45214078e-01 
 3.12842256e-04  7.59230545e-01  3.45447833e-01 
 3.13842256e-04  7.59206193e-01  3.45685798e-01 
 3.14842256e-04  7.59181478e-01  3.45927998e-01 
 3.15842256e-04  7.59156401e-01  3.46174456e-01 
 3.16842256e-04  7.59130962e-01  3.46425199e-01 
 3.17842256e-04  7.59105162e-01  3.46680250e-01 
 3.18842256e-04  7.59079003e-01  3.46939638e-01 
 3.19842256e-04  7.59052486e-01  3.47203389e-01 
 3.20842256e-04  7.59025611e-01  3.47471529e-01 
 3.21842256e-04  7.58998381e-01  3.47744088e-01 
 3.22842256e-04  7.58970794e-01  3.48021095e-01 
 3.23842256e-04  7.58942854e-01  3.48302577e-01 
 3.24842256e-04  7.58914561e-01  3.48588566e-01 
 3.25842256e-04  7.58885915e-01  3.48879092e-01 
 3.26842256e-04  7.58856919e-01  3.49174186e-01 
 3.27842256e-04  7.58827573e-01  3.49473880e-01 
 3.28842256e-04  7.58797879e-01  3.49778208e-01 
 3.29842256e-04  7.58767837e-01  3.50087202e-01 
 3.30842256e-04  7.58737450e-01  3.50400896e-01 
 3.31842256e-04  7.58706717e-01  3.50719326e-01 
 3.32842256e-04  7.58675640e-01  3.51042527e-01 
 3.33842256e-04  7.58644222e-01  3.51370535e-01 
 3.34842256e-04  7.58612461e-01  3.51703387e-01 
 3.35842256e-04  7.58580361e-01  3.52041122e-01 
 3.36842256e-04  7.58547922e-01  3.52383777e-01 
 3.37842256e-04  7.58515146e-01  3.52731394e-01 
 3.37967256e-04  7.58511025e-01  3.52775201e-01 
 3.38217256e-04  7.58502768e-01  3.52863037e-01 
 3.38717256e-04  7.58486191e-01  3.53039658e-01 
 3.39717256e-04  7.58452785e-01  3.53396685e-01 
 3.40717256e-04  7.58419046e-01  3.53758790e-01 
 3.41717256e-04  7.58384974e-01  3.54126017e-01 
 3.42717256e-04  7.58350571e-01  3.54498410e-01 
 3.43717256e-04  7.58315839e-01  3.54876012e-01 
 3.44717256e-04  7.58280778e-01  3.55258870e-01 
 3.45717256e-04  7.58245391e-01  3.55647030e-01 
 3.46717256e-04  7.58209678e-01  3.56040540e-01 
 3.47717256e-04  7.58173640e-01  3.56439447e-01 
 3.48717256e-04  7.58137281e-01  3.56843802e-01 
 3.49717256e-04  7.58100599e-01  3.57253655e-01 
 3.50717256e-04  7.58063598e-01  3.57669058e-01 
 3.51717256e-04  7.58026279e-01  3.58090063e-01 
 3.52717256e-04  7.57988643e-01  3.58516723e-01 
 3.53717256e-04  7.57950692e-01  3.58949094e-01 
 3.54717256e-04  7.57912426e-01  3.59387231e-01 
 3.55717256e-04  7.57873848e-01  3.59831192e-01 
 3.56717256e-04  7.57834960e-01  3.60281035e-01 
 3.57717256e-04  7.57795762e-01  3.60736818e-01 
 3.58717256e-04  7.57756256e-01  3.61198603e-01 
 3.59717256e-04  7.57716444e-01  3.61666452e-01 
 3.60717256e-04  7.57676328e-01  3.62140427e-01 
 3.61717256e-04  7.57635908e-01  3.62620593e-01 
 3.62717256e-04  7.57595187e-01  3.63107016e-01 
 3.63717256e-04  7.57554166e-01  3.63599762e-01 
 3.64717256e-04  7.57512847e-01  3.64098899e-01 
 3.65717256e-04  7.57471232e-01  3.64604499e-01 
 3.66717256e-04  7.57429321e-01  3.65116630e-01 
 3.67717256e-04  7.57387117e-01  3.65635367e-01 
 3.68717256e-04  7.57344621e-01  3.66160783e-01 
